🚀 Starting Soak Test: duration=10 s
[COMM] comm_manager_init called
[COMM] Using provided config
[COMM] Initializing registry...
[REGISTRY] Loading YAML configuration from: modules.yaml
[REGISTRY] Warning: Cannot open YAML file: modules.yaml (using defaults)
[COMM] Initializing RS485...
[COMM] init_rs485 called
[COMM] Calling hal_rs485_init with baud=115200, timeout=100
[COMM] hal_rs485_init returned: 0
[COMM] Opening RS485 device...
[COMM] RS485 device opened successfully
[SOAK] comm_manager_init => 0
Module Manager initialized successfully
[MODULE_CFG] Applied: health=10000ms offline=30000ms retry=3 resp_to=1000 jitter=10 scan=[0x01..0x08]
[MODULE] Communication manager status check: result=0, status=2
[MODULE] Starting module discovery...
[MODBUS] Sending request: slave=0x01, fc=0x03, addr=0x00F0, qty=1
[MODBUS] Frame built: length=8, data=01 03 00 F0 00 01 84 39 
[MODBUS] Attempt 1/3: sending frame...
[RS485-TX] Sending 8 bytes: 01 03 00 F0 00 01 84 39  (Slave: 01, Func: 03)
[HAL-RS485-TX] Transmitting 8 bytes to /dev/ttyOHT485
[HAL-RS485-TX] Success: 8 bytes written
[RS485-TX] Success
[MODBUS] Frame sent, waiting for response...
[RS485-RX] Waiting for response...
[HAL-RS485-RX] Waiting for data (timeout=100 ms)...
[HAL-RS485-RX] Timeout after 100 ms
[RS485-RX] Timeout/Error: status=-4
[MODBUS] ERROR: receive_modbus_frame failed (status=-4)
[MODBUS] Attempt 2/3: sending frame...
[RS485-TX] Sending 8 bytes: 01 03 00 F0 00 01 84 39  (Slave: 01, Func: 03)
[HAL-RS485-TX] Transmitting 8 bytes to /dev/ttyOHT485
[HAL-RS485-TX] Success: 8 bytes written
[RS485-TX] Success
[MODBUS] Frame sent, waiting for response...
[RS485-RX] Waiting for response...
[HAL-RS485-RX] Waiting for data (timeout=100 ms)...
[HAL-RS485-RX] Timeout after 100 ms
[RS485-RX] Timeout/Error: status=-4
[MODBUS] ERROR: receive_modbus_frame failed (status=-4)
[MODBUS] Attempt 3/3: sending frame...
[RS485-TX] Sending 8 bytes: 01 03 00 F0 00 01 84 39  (Slave: 01, Func: 03)
[HAL-RS485-TX] Transmitting 8 bytes to /dev/ttyOHT485
[HAL-RS485-TX] Success: 8 bytes written
[RS485-TX] Success
[MODBUS] Frame sent, waiting for response...
[RS485-RX] Waiting for response...
[HAL-RS485-RX] Waiting for data (timeout=100 ms)...
[HAL-RS485-RX] Timeout after 100 ms
[RS485-RX] Timeout/Error: status=-4
[MODBUS] ERROR: receive_modbus_frame failed (status=-4)
[MODBUS] ERROR: Max retries exceeded
[MODBUS] Sending request: slave=0x02, fc=0x03, addr=0x00F0, qty=1
[MODBUS] Frame built: length=8, data=02 03 00 F0 00 01 84 0A 
[MODBUS] Attempt 1/3: sending frame...
[RS485-TX] Sending 8 bytes: 02 03 00 F0 00 01 84 0A  (Slave: 02, Func: 03)
[HAL-RS485-TX] Transmitting 8 bytes to /dev/ttyOHT485
[HAL-RS485-TX] Success: 8 bytes written
[RS485-TX] Success
[MODBUS] Frame sent, waiting for response...
[RS485-RX] Waiting for response...
[HAL-RS485-RX] Waiting for data (timeout=100 ms)...
[HAL-RS485-RX] Success: received 7 bytes
[RS485-RX] Received 7 bytes: 02 03 02 00 02 7D 85  (Slave: 02, Func: 03)
[RS485-RX] CRC OK
[MODBUS] Response received: length=7, data=02 03 02 00 02 7D 85 
[MODBUS] Response parsed successfully
[MODBUS] Sending request: slave=0x02, fc=0x03, addr=0x00F7, qty=1
[MODBUS] Frame built: length=8, data=02 03 00 F7 00 01 35 CB 
[MODBUS] Attempt 1/3: sending frame...
[RS485-TX] Sending 8 bytes: 02 03 00 F7 00 01 35 CB  (Slave: 02, Func: 03)
[HAL-RS485-TX] Transmitting 8 bytes to /dev/ttyOHT485
[HAL-RS485-TX] Success: 8 bytes written
[RS485-TX] Success
[MODBUS] Frame sent, waiting for response...
[RS485-RX] Waiting for response...
[HAL-RS485-RX] Waiting for data (timeout=100 ms)...
[HAL-RS485-RX] Success: received 7 bytes
[RS485-RX] Received 7 bytes: 02 03 02 00 02 7D 85  (Slave: 02, Func: 03)
[RS485-RX] CRC OK
[MODBUS] Response received: length=7, data=02 03 02 00 02 7D 85 
[MODBUS] Response parsed successfully
[MODBUS] Sending request: slave=0x02, fc=0x03, addr=0x00F8, qty=8
[MODBUS] Frame built: length=8, data=02 03 00 F8 00 08 C5 CE 
[MODBUS] Attempt 1/3: sending frame...
[RS485-TX] Sending 8 bytes: 02 03 00 F8 00 08 C5 CE  (Slave: 02, Func: 03)
[HAL-RS485-TX] Transmitting 8 bytes to /dev/ttyOHT485
[HAL-RS485-TX] Success: 8 bytes written
[RS485-TX] Success
[MODBUS] Frame sent, waiting for response...
[RS485-RX] Waiting for response...
[HAL-RS485-RX] Waiting for data (timeout=100 ms)...
[HAL-RS485-RX] Success: received 5 bytes
[RS485-RX] Received 5 bytes: 02 83 02 30 F1  (Slave: 02, Func: 83)
[RS485-RX] CRC OK
[MODBUS] Response received: length=5, data=02 83 02 30 F1 
[MODBUS] EXCEPTION: ILLEGAL_DATA_ADDRESS (code=0x02)
[MODULE] Version registers not supported, using default: 'v1.0.0'
[MODBUS] Sending request: slave=0x02, fc=0x03, addr=0x0100, qty=1
[MODBUS] Frame built: length=8, data=02 03 01 00 00 01 85 C5 
[MODBUS] Attempt 1/3: sending frame...
[RS485-TX] Sending 8 bytes: 02 03 01 00 00 01 85 C5  (Slave: 02, Func: 03)
[HAL-RS485-TX] Transmitting 8 bytes to /dev/ttyOHT485
[HAL-RS485-TX] Success: 8 bytes written
[RS485-TX] Success
[MODBUS] Frame sent, waiting for response...
[RS485-RX] Waiting for response...
[HAL-RS485-RX] Waiting for data (timeout=100 ms)...
[HAL-RS485-RX] Success: received 5 bytes
[RS485-RX] Received 5 bytes: 02 83 02 30 F1  (Slave: 02, Func: 83)
[RS485-RX] CRC OK
[MODBUS] Response received: length=5, data=02 83 02 30 F1 
[MODBUS] EXCEPTION: ILLEGAL_DATA_ADDRESS (code=0x02)
[MODULE] Capabilities read successfully for module 0x02
[MODULE] Attempting to register module: address=0x02, type=0x0002, device_id=0x0002
Module 2 registered
[MODULE] module_manager_register_module result: 0
[MODULE] Module registered successfully: address=0x02, type=0x0002
[MODULE] Calling power module auto-detect for address 0x02
[POWER-AUTO] Auto-detect called for slave_id=0x02
[POWER-AUTO] Power module handler not initialized, but auto-detect can still work
[MODBUS] Sending request: slave=0x02, fc=0x03, addr=0x00F7, qty=1
[MODBUS] Frame built: length=8, data=02 03 00 F7 00 01 35 CB 
[MODBUS] Attempt 1/3: sending frame...
[RS485-TX] Sending 8 bytes: 02 03 00 F7 00 01 35 CB  (Slave: 02, Func: 03)
[HAL-RS485-TX] Transmitting 8 bytes to /dev/ttyOHT485
[HAL-RS485-TX] Success: 8 bytes written
[RS485-TX] Success
[MODBUS] Frame sent, waiting for response...
[RS485-RX] Waiting for response...
[HAL-RS485-RX] Waiting for data (timeout=100 ms)...
[HAL-RS485-RX] Success: received 7 bytes
[RS485-RX] Received 7 bytes: 02 03 02 00 02 7D 85  (Slave: 02, Func: 03)
[RS485-RX] CRC OK
[MODBUS] Response received: length=7, data=02 03 02 00 02 7D 85 
[MODBUS] Response parsed successfully
[POWER-AUTO] Read MODULE_TYPE (0x00F7) = 0x0002, status=0
[POWER-AUTO] ✅ Module type OK (0x0002). Marking online.
[MODULE] Power auto-detect result: 0
[MODBUS] Sending request: slave=0x03, fc=0x03, addr=0x00F0, qty=1
[MODBUS] Frame built: length=8, data=03 03 00 F0 00 01 85 DB 
[MODBUS] Attempt 1/3: sending frame...
[RS485-TX] Sending 8 bytes: 03 03 00 F0 00 01 85 DB  (Slave: 03, Func: 03)
[HAL-RS485-TX] Transmitting 8 bytes to /dev/ttyOHT485
[HAL-RS485-TX] Success: 8 bytes written
[RS485-TX] Success
[MODBUS] Frame sent, waiting for response...
[RS485-RX] Waiting for response...
[HAL-RS485-RX] Waiting for data (timeout=100 ms)...
[HAL-RS485-RX] Success: received 7 bytes
[RS485-RX] Received 7 bytes: 03 03 02 00 03 81 85  (Slave: 03, Func: 03)
[RS485-RX] CRC OK
[MODBUS] Response received: length=7, data=03 03 02 00 03 81 85 
[MODBUS] Response parsed successfully
[MODBUS] Sending request: slave=0x03, fc=0x03, addr=0x00F7, qty=1
[MODBUS] Frame built: length=8, data=03 03 00 F7 00 01 34 1A 
[MODBUS] Attempt 1/3: sending frame...
[RS485-TX] Sending 8 bytes: 03 03 00 F7 00 01 34 1A  (Slave: 03, Func: 03)
[HAL-RS485-TX] Transmitting 8 bytes to /dev/ttyOHT485
[HAL-RS485-TX] Success: 8 bytes written
[RS485-TX] Success
[MODBUS] Frame sent, waiting for response...
[RS485-RX] Waiting for response...
[HAL-RS485-RX] Waiting for data (timeout=100 ms)...
[HAL-RS485-RX] Success: received 7 bytes
[RS485-RX] Received 7 bytes: 03 03 02 00 03 81 85  (Slave: 03, Func: 03)
[RS485-RX] CRC OK
[MODBUS] Response received: length=7, data=03 03 02 00 03 81 85 
[MODBUS] Response parsed successfully
[MODBUS] Sending request: slave=0x03, fc=0x03, addr=0x00F8, qty=8
[MODBUS] Frame built: length=8, data=03 03 00 F8 00 08 C4 1F 
[MODBUS] Attempt 1/3: sending frame...
[RS485-TX] Sending 8 bytes: 03 03 00 F8 00 08 C4 1F  (Slave: 03, Func: 03)
[HAL-RS485-TX] Transmitting 8 bytes to /dev/ttyOHT485
[HAL-RS485-TX] Success: 8 bytes written
[RS485-TX] Success
[MODBUS] Frame sent, waiting for response...
[RS485-RX] Waiting for response...
[HAL-RS485-RX] Waiting for data (timeout=100 ms)...
[HAL-RS485-RX] Success: received 5 bytes
[RS485-RX] Received 5 bytes: 03 83 02 61 31  (Slave: 03, Func: 83)
[RS485-RX] CRC OK
[MODBUS] Response received: length=5, data=03 83 02 61 31 
[MODBUS] EXCEPTION: ILLEGAL_DATA_ADDRESS (code=0x02)
[MODULE] Version registers not supported, using default: 'v1.0.0'
[MODBUS] Sending request: slave=0x03, fc=0x03, addr=0x0100, qty=1
[MODBUS] Frame built: length=8, data=03 03 01 00 00 01 84 14 
[MODBUS] Attempt 1/3: sending frame...
[RS485-TX] Sending 8 bytes: 03 03 01 00 00 01 84 14  (Slave: 03, Func: 03)
[HAL-RS485-TX] Transmitting 8 bytes to /dev/ttyOHT485
[HAL-RS485-TX] Success: 8 bytes written
[RS485-TX] Success
[MODBUS] Frame sent, waiting for response...
[RS485-RX] Waiting for response...
[HAL-RS485-RX] Waiting for data (timeout=100 ms)...
[HAL-RS485-RX] Success: received 5 bytes
[RS485-RX] Received 5 bytes: 03 83 02 61 31  (Slave: 03, Func: 83)
[RS485-RX] CRC OK
[MODBUS] Response received: length=5, data=03 83 02 61 31 
[MODBUS] EXCEPTION: ILLEGAL_DATA_ADDRESS (code=0x02)
[MODULE] Capabilities read successfully for module 0x03
[MODULE] Attempting to register module: address=0x03, type=0x0003, device_id=0x0003
Module 3 registered
[MODULE] module_manager_register_module result: 0
[MODULE] Module registered successfully: address=0x03, type=0x0003
[MODBUS] Sending request: slave=0x04, fc=0x03, addr=0x00F0, qty=1
[MODBUS] Frame built: length=8, data=04 03 00 F0 00 01 84 6C 
[MODBUS] Attempt 1/3: sending frame...
[RS485-TX] Sending 8 bytes: 04 03 00 F0 00 01 84 6C  (Slave: 04, Func: 03)
[HAL-RS485-TX] Transmitting 8 bytes to /dev/ttyOHT485
[HAL-RS485-TX] Success: 8 bytes written
[RS485-TX] Success
[MODBUS] Frame sent, waiting for response...
[RS485-RX] Waiting for response...
[HAL-RS485-RX] Waiting for data (timeout=100 ms)...
[HAL-RS485-RX] Success: received 7 bytes
[RS485-RX] Received 7 bytes: 04 03 02 00 04 75 87  (Slave: 04, Func: 03)
[RS485-RX] CRC OK
[MODBUS] Response received: length=7, data=04 03 02 00 04 75 87 
[MODBUS] Response parsed successfully
[MODBUS] Sending request: slave=0x04, fc=0x03, addr=0x00F7, qty=1
[MODBUS] Frame built: length=8, data=04 03 00 F7 00 01 35 AD 
[MODBUS] Attempt 1/3: sending frame...
[RS485-TX] Sending 8 bytes: 04 03 00 F7 00 01 35 AD  (Slave: 04, Func: 03)
[HAL-RS485-TX] Transmitting 8 bytes to /dev/ttyOHT485
[HAL-RS485-TX] Success: 8 bytes written
[RS485-TX] Success
[MODBUS] Frame sent, waiting for response...
[RS485-RX] Waiting for response...
[HAL-RS485-RX] Waiting for data (timeout=100 ms)...
[HAL-RS485-RX] Success: received 7 bytes
[RS485-RX] Received 7 bytes: 04 03 02 00 04 75 87  (Slave: 04, Func: 03)
[RS485-RX] CRC OK
[MODBUS] Response received: length=7, data=04 03 02 00 04 75 87 
[MODBUS] Response parsed successfully
[MODBUS] Sending request: slave=0x04, fc=0x03, addr=0x00F8, qty=8
[MODBUS] Frame built: length=8, data=04 03 00 F8 00 08 C5 A8 
[MODBUS] Attempt 1/3: sending frame...
[RS485-TX] Sending 8 bytes: 04 03 00 F8 00 08 C5 A8  (Slave: 04, Func: 03)
[HAL-RS485-TX] Transmitting 8 bytes to /dev/ttyOHT485
[HAL-RS485-TX] Success: 8 bytes written
[RS485-TX] Success
[MODBUS] Frame sent, waiting for response...
[RS485-RX] Waiting for response...
[HAL-RS485-RX] Waiting for data (timeout=100 ms)...
[HAL-RS485-RX] Success: received 5 bytes
[RS485-RX] Received 5 bytes: 04 83 02 D0 F0  (Slave: 04, Func: 83)
[RS485-RX] CRC OK
[MODBUS] Response received: length=5, data=04 83 02 D0 F0 
[MODBUS] EXCEPTION: ILLEGAL_DATA_ADDRESS (code=0x02)
[MODULE] Version registers not supported, using default: 'v1.0.0'
[MODBUS] Sending request: slave=0x04, fc=0x03, addr=0x0100, qty=1
[MODBUS] Frame built: length=8, data=04 03 01 00 00 01 85 A3 
[MODBUS] Attempt 1/3: sending frame...
[RS485-TX] Sending 8 bytes: 04 03 01 00 00 01 85 A3  (Slave: 04, Func: 03)
[HAL-RS485-TX] Transmitting 8 bytes to /dev/ttyOHT485
[HAL-RS485-TX] Success: 8 bytes written
[RS485-TX] Success
[MODBUS] Frame sent, waiting for response...
[RS485-RX] Waiting for response...
[HAL-RS485-RX] Waiting for data (timeout=100 ms)...
[HAL-RS485-RX] Success: received 5 bytes
[RS485-RX] Received 5 bytes: 04 83 02 D0 F0  (Slave: 04, Func: 83)
[RS485-RX] CRC OK
[MODBUS] Response received: length=5, data=04 83 02 D0 F0 
[MODBUS] EXCEPTION: ILLEGAL_DATA_ADDRESS (code=0x02)
[MODULE] Capabilities read successfully for module 0x04
[MODULE] Attempting to register module: address=0x04, type=0x0004, device_id=0x0004
Module 4 registered
[MODULE] module_manager_register_module result: 0
[MODULE] Module registered successfully: address=0x04, type=0x0004
[MODBUS] Sending request: slave=0x05, fc=0x03, addr=0x00F0, qty=1
[MODBUS] Frame built: length=8, data=05 03 00 F0 00 01 85 BD 
[MODBUS] Attempt 1/3: sending frame...
[RS485-TX] Sending 8 bytes: 05 03 00 F0 00 01 85 BD  (Slave: 05, Func: 03)
[HAL-RS485-TX] Transmitting 8 bytes to /dev/ttyOHT485
[HAL-RS485-TX] Success: 8 bytes written
[RS485-TX] Success
[MODBUS] Frame sent, waiting for response...
[RS485-RX] Waiting for response...
[HAL-RS485-RX] Waiting for data (timeout=100 ms)...
[HAL-RS485-RX] Success: received 7 bytes
[RS485-RX] Received 7 bytes: 05 03 02 00 05 89 87  (Slave: 05, Func: 03)
[RS485-RX] CRC OK
[MODBUS] Response received: length=7, data=05 03 02 00 05 89 87 
[MODBUS] Response parsed successfully
[MODBUS] Sending request: slave=0x05, fc=0x03, addr=0x00F7, qty=1
[MODBUS] Frame built: length=8, data=05 03 00 F7 00 01 34 7C 
[MODBUS] Attempt 1/3: sending frame...
[RS485-TX] Sending 8 bytes: 05 03 00 F7 00 01 34 7C  (Slave: 05, Func: 03)
[HAL-RS485-TX] Transmitting 8 bytes to /dev/ttyOHT485
[HAL-RS485-TX] Success: 8 bytes written
[RS485-TX] Success
[MODBUS] Frame sent, waiting for response...
[RS485-RX] Waiting for response...
[HAL-RS485-RX] Waiting for data (timeout=100 ms)...
[HAL-RS485-RX] Success: received 7 bytes
[RS485-RX] Received 7 bytes: 05 03 02 00 05 89 87  (Slave: 05, Func: 03)
[RS485-RX] CRC OK
[MODBUS] Response received: length=7, data=05 03 02 00 05 89 87 
[MODBUS] Response parsed successfully
[MODBUS] Sending request: slave=0x05, fc=0x03, addr=0x00F8, qty=8
[MODBUS] Frame built: length=8, data=05 03 00 F8 00 08 C4 79 
[MODBUS] Attempt 1/3: sending frame...
[RS485-TX] Sending 8 bytes: 05 03 00 F8 00 08 C4 79  (Slave: 05, Func: 03)
[HAL-RS485-TX] Transmitting 8 bytes to /dev/ttyOHT485
[HAL-RS485-TX] Success: 8 bytes written
[RS485-TX] Success
[MODBUS] Frame sent, waiting for response...
[RS485-RX] Waiting for response...
[HAL-RS485-RX] Waiting for data (timeout=100 ms)...
[HAL-RS485-RX] Success: received 5 bytes
[RS485-RX] Received 5 bytes: 05 83 02 81 30  (Slave: 05, Func: 83)
[RS485-RX] CRC OK
[MODBUS] Response received: length=5, data=05 83 02 81 30 
[MODBUS] EXCEPTION: ILLEGAL_DATA_ADDRESS (code=0x02)
[MODULE] Version registers not supported, using default: 'v1.0.0'
[MODBUS] Sending request: slave=0x05, fc=0x03, addr=0x0100, qty=1
[MODBUS] Frame built: length=8, data=05 03 01 00 00 01 84 72 
[MODBUS] Attempt 1/3: sending frame...
[RS485-TX] Sending 8 bytes: 05 03 01 00 00 01 84 72  (Slave: 05, Func: 03)
[HAL-RS485-TX] Transmitting 8 bytes to /dev/ttyOHT485
[HAL-RS485-TX] Success: 8 bytes written
[RS485-TX] Success
[MODBUS] Frame sent, waiting for response...
[RS485-RX] Waiting for response...
[HAL-RS485-RX] Waiting for data (timeout=100 ms)...
[HAL-RS485-RX] Success: received 5 bytes
[RS485-RX] Received 5 bytes: 05 83 02 81 30  (Slave: 05, Func: 83)
[RS485-RX] CRC OK
[MODBUS] Response received: length=5, data=05 83 02 81 30 
[MODBUS] EXCEPTION: ILLEGAL_DATA_ADDRESS (code=0x02)
[MODULE] Capabilities read successfully for module 0x05
[MODULE] Attempting to register module: address=0x05, type=0x0005, device_id=0x0005
Module 5 registered
[MODULE] module_manager_register_module result: 0
[MODULE] Module registered successfully: address=0x05, type=0x0005
[MODBUS] Sending request: slave=0x06, fc=0x03, addr=0x00F0, qty=1
[MODBUS] Frame built: length=8, data=06 03 00 F0 00 01 85 8E 
[MODBUS] Attempt 1/3: sending frame...
[RS485-TX] Sending 8 bytes: 06 03 00 F0 00 01 85 8E  (Slave: 06, Func: 03)
[HAL-RS485-TX] Transmitting 8 bytes to /dev/ttyOHT485
[HAL-RS485-TX] Success: 8 bytes written
[RS485-TX] Success
[MODBUS] Frame sent, waiting for response...
[RS485-RX] Waiting for response...
[HAL-RS485-RX] Waiting for data (timeout=100 ms)...
[HAL-RS485-RX] Success: received 7 bytes
[RS485-RX] Received 7 bytes: 06 03 02 20 06 94 46  (Slave: 06, Func: 03)
[RS485-RX] CRC OK
[MODBUS] Response received: length=7, data=06 03 02 20 06 94 46 
[MODBUS] Response parsed successfully
[MODBUS] Sending request: slave=0x06, fc=0x03, addr=0x00F7, qty=1
[MODBUS] Frame built: length=8, data=06 03 00 F7 00 01 34 4F 
[MODBUS] Attempt 1/3: sending frame...
[RS485-TX] Sending 8 bytes: 06 03 00 F7 00 01 34 4F  (Slave: 06, Func: 03)
[HAL-RS485-TX] Transmitting 8 bytes to /dev/ttyOHT485
[HAL-RS485-TX] Success: 8 bytes written
[RS485-TX] Success
[MODBUS] Frame sent, waiting for response...
[RS485-RX] Waiting for response...
[HAL-RS485-RX] Waiting for data (timeout=100 ms)...
[HAL-RS485-RX] Success: received 7 bytes
[RS485-RX] Received 7 bytes: 06 03 02 00 06 8D 86  (Slave: 06, Func: 03)
[RS485-RX] CRC OK
[MODBUS] Response received: length=7, data=06 03 02 00 06 8D 86 
[MODBUS] Response parsed successfully
[MODBUS] Sending request: slave=0x06, fc=0x03, addr=0x00F8, qty=8
[MODBUS] Frame built: length=8, data=06 03 00 F8 00 08 C4 4A 
[MODBUS] Attempt 1/3: sending frame...
[RS485-TX] Sending 8 bytes: 06 03 00 F8 00 08 C4 4A  (Slave: 06, Func: 03)
[HAL-RS485-TX] Transmitting 8 bytes to /dev/ttyOHT485
[HAL-RS485-TX] Success: 8 bytes written
[RS485-TX] Success
[MODBUS] Frame sent, waiting for response...
[RS485-RX] Waiting for response...
[HAL-RS485-RX] Waiting for data (timeout=100 ms)...
[HAL-RS485-RX] Success: received 5 bytes
[RS485-RX] Received 5 bytes: 06 83 02 71 30  (Slave: 06, Func: 83)
[RS485-RX] CRC OK
[MODBUS] Response received: length=5, data=06 83 02 71 30 
[MODBUS] EXCEPTION: ILLEGAL_DATA_ADDRESS (code=0x02)
[MODULE] Version registers not supported, using default: 'v1.0.0'
Invalid module type 0x0006 at address 0x06
[MODBUS] Sending request: slave=0x07, fc=0x03, addr=0x00F0, qty=1
[MODBUS] Frame built: length=8, data=07 03 00 F0 00 01 84 5F 
[MODBUS] Attempt 1/3: sending frame...
[RS485-TX] Sending 8 bytes: 07 03 00 F0 00 01 84 5F  (Slave: 07, Func: 03)
[HAL-RS485-TX] Transmitting 8 bytes to /dev/ttyOHT485
[HAL-RS485-TX] Success: 8 bytes written
[RS485-TX] Success
[MODBUS] Frame sent, waiting for response...
[RS485-RX] Waiting for response...
[HAL-RS485-RX] Waiting for data (timeout=100 ms)...
[HAL-RS485-RX] Success: received 7 bytes
[RS485-RX] Received 7 bytes: 07 03 02 20 06 A9 86  (Slave: 07, Func: 03)
[RS485-RX] CRC OK
[MODBUS] Response received: length=7, data=07 03 02 20 06 A9 86 
[MODBUS] Response parsed successfully
[MODBUS] Sending request: slave=0x07, fc=0x03, addr=0x00F7, qty=1
[MODBUS] Frame built: length=8, data=07 03 00 F7 00 01 35 9E 
[MODBUS] Attempt 1/3: sending frame...
[RS485-TX] Sending 8 bytes: 07 03 00 F7 00 01 35 9E  (Slave: 07, Func: 03)
[HAL-RS485-TX] Transmitting 8 bytes to /dev/ttyOHT485
[HAL-RS485-TX] Success: 8 bytes written
[RS485-TX] Success
[MODBUS] Frame sent, waiting for response...
[RS485-RX] Waiting for response...
[HAL-RS485-RX] Waiting for data (timeout=100 ms)...
[HAL-RS485-RX] Success: received 7 bytes
[RS485-RX] Received 7 bytes: 07 03 02 00 07 71 86  (Slave: 07, Func: 03)
[RS485-RX] CRC OK
[MODBUS] Response received: length=7, data=07 03 02 00 07 71 86 
[MODBUS] Response parsed successfully
[MODBUS] Sending request: slave=0x07, fc=0x03, addr=0x00F8, qty=8
[MODBUS] Frame built: length=8, data=07 03 00 F8 00 08 C5 9B 
[MODBUS] Attempt 1/3: sending frame...
[RS485-TX] Sending 8 bytes: 07 03 00 F8 00 08 C5 9B  (Slave: 07, Func: 03)
[HAL-RS485-TX] Transmitting 8 bytes to /dev/ttyOHT485
[HAL-RS485-TX] Success: 8 bytes written
[RS485-TX] Success
[MODBUS] Frame sent, waiting for response...
[RS485-RX] Waiting for response...
[HAL-RS485-RX] Waiting for data (timeout=100 ms)...
[HAL-RS485-RX] Success: received 5 bytes
[RS485-RX] Received 5 bytes: 07 83 02 20 F0  (Slave: 07, Func: 83)
[RS485-RX] CRC OK
[MODBUS] Response received: length=5, data=07 83 02 20 F0 
[MODBUS] EXCEPTION: ILLEGAL_DATA_ADDRESS (code=0x02)
[MODULE] Version registers not supported, using default: 'v1.0.0'
Invalid module type 0x0007 at address 0x07
[MODBUS] Sending request: slave=0x08, fc=0x03, addr=0x00F0, qty=1
[MODBUS] Frame built: length=8, data=08 03 00 F0 00 01 84 A0 
[MODBUS] Attempt 1/3: sending frame...
[RS485-TX] Sending 8 bytes: 08 03 00 F0 00 01 84 A0  (Slave: 08, Func: 03)
[HAL-RS485-TX] Transmitting 8 bytes to /dev/ttyOHT485
[HAL-RS485-TX] Success: 8 bytes written
[RS485-TX] Success
[MODBUS] Frame sent, waiting for response...
[RS485-RX] Waiting for response...
[HAL-RS485-RX] Waiting for data (timeout=100 ms)...
[HAL-RS485-RX] Success: received 5 bytes
[RS485-RX] Received 5 bytes: 08 83 02 10 F3  (Slave: 08, Func: 83)
[RS485-RX] CRC OK
[MODBUS] Response received: length=5, data=08 83 02 10 F3 
[MODBUS] EXCEPTION: ILLEGAL_DATA_ADDRESS (code=0x02)
[MODULE] Discovery scan complete: discovered=4, scanned=8, total_ms=1120
[MODBUS] Sending request: slave=0x02, fc=0x03, addr=0x0000, qty=1
[MODBUS] Frame built: length=8, data=02 03 00 00 00 01 84 39 
[MODBUS] Attempt 1/3: sending frame...
[RS485-TX] Sending 8 bytes: 02 03 00 00 00 01 84 39  (Slave: 02, Func: 03)
[HAL-RS485-TX] Transmitting 8 bytes to /dev/ttyOHT485
[HAL-RS485-TX] Success: 8 bytes written
[RS485-TX] Success
[MODBUS] Frame sent, waiting for response...
[RS485-RX] Waiting for response...
[HAL-RS485-RX] Waiting for data (timeout=100 ms)...
[HAL-RS485-RX] Success: received 7 bytes
[RS485-RX] Received 7 bytes: 02 03 02 00 00 FC 44  (Slave: 02, Func: 03)
[RS485-RX] CRC OK
[MODBUS] Response received: length=7, data=02 03 02 00 00 FC 44 
[MODBUS] Response parsed successfully
[SOAK] Probe addr=0x02 read 0x0000 => status=0 val=0
[MODBUS] Sending request: slave=0x03, fc=0x03, addr=0x0000, qty=1
[MODBUS] Frame built: length=8, data=03 03 00 00 00 01 85 E8 
[MODBUS] Attempt 1/3: sending frame...
[RS485-TX] Sending 8 bytes: 03 03 00 00 00 01 85 E8  (Slave: 03, Func: 03)
[HAL-RS485-TX] Transmitting 8 bytes to /dev/ttyOHT485
[HAL-RS485-TX] Success: 8 bytes written
[RS485-TX] Success
[MODBUS] Frame sent, waiting for response...
[RS485-RX] Waiting for response...
[HAL-RS485-RX] Waiting for data (timeout=100 ms)...
[HAL-RS485-RX] Success: received 7 bytes
[RS485-RX] Received 7 bytes: 03 03 02 00 00 C1 84  (Slave: 03, Func: 03)
[RS485-RX] CRC OK
[MODBUS] Response received: length=7, data=03 03 02 00 00 C1 84 
[MODBUS] Response parsed successfully
[SOAK] Probe addr=0x03 read 0x0000 => status=0 val=0
[MODBUS] Sending request: slave=0x04, fc=0x03, addr=0x0000, qty=1
[MODBUS] Frame built: length=8, data=04 03 00 00 00 01 84 5F 
[MODBUS] Attempt 1/3: sending frame...
[RS485-TX] Sending 8 bytes: 04 03 00 00 00 01 84 5F  (Slave: 04, Func: 03)
[HAL-RS485-TX] Transmitting 8 bytes to /dev/ttyOHT485
[HAL-RS485-TX] Success: 8 bytes written
[RS485-TX] Success
[MODBUS] Frame sent, waiting for response...
[RS485-RX] Waiting for response...
[HAL-RS485-RX] Waiting for data (timeout=100 ms)...
[HAL-RS485-RX] Success: received 7 bytes
[RS485-RX] Received 7 bytes: 04 03 02 00 00 74 44  (Slave: 04, Func: 03)
[RS485-RX] CRC OK
[MODBUS] Response received: length=7, data=04 03 02 00 00 74 44 
[MODBUS] Response parsed successfully
[SOAK] Probe addr=0x04 read 0x0000 => status=0 val=0
[MODBUS] Sending request: slave=0x05, fc=0x03, addr=0x0000, qty=1
[MODBUS] Frame built: length=8, data=05 03 00 00 00 01 85 8E 
[MODBUS] Attempt 1/3: sending frame...
[RS485-TX] Sending 8 bytes: 05 03 00 00 00 01 85 8E  (Slave: 05, Func: 03)
[HAL-RS485-TX] Transmitting 8 bytes to /dev/ttyOHT485
[HAL-RS485-TX] Success: 8 bytes written
[RS485-TX] Success
[MODBUS] Frame sent, waiting for response...
[RS485-RX] Waiting for response...
[HAL-RS485-RX] Waiting for data (timeout=100 ms)...
[HAL-RS485-RX] Success: received 7 bytes
[RS485-RX] Received 7 bytes: 05 03 02 00 00 49 84  (Slave: 05, Func: 03)
[RS485-RX] CRC OK
[MODBUS] Response received: length=7, data=05 03 02 00 00 49 84 
[MODBUS] Response parsed successfully
[SOAK] Probe addr=0x05 read 0x0000 => status=0 val=0
[MODBUS] Sending request: slave=0x06, fc=0x03, addr=0x0000, qty=1
[MODBUS] Frame built: length=8, data=06 03 00 00 00 01 85 BD 
[MODBUS] Attempt 1/3: sending frame...
[RS485-TX] Sending 8 bytes: 06 03 00 00 00 01 85 BD  (Slave: 06, Func: 03)
[HAL-RS485-TX] Transmitting 8 bytes to /dev/ttyOHT485
[HAL-RS485-TX] Success: 8 bytes written
[RS485-TX] Success
[MODBUS] Frame sent, waiting for response...
[RS485-RX] Waiting for response...
[HAL-RS485-RX] Waiting for data (timeout=100 ms)...
[HAL-RS485-RX] Success: received 7 bytes
[RS485-RX] Received 7 bytes: 06 03 02 00 00 0A 84  (Slave: 06, Func: 03)
[RS485-RX] CRC Error - calculated vs received mismatch
[MODBUS] ERROR: receive_modbus_frame failed (status=-1)
[MODBUS] Attempt 2/3: sending frame...
[RS485-TX] Sending 8 bytes: 06 03 00 00 00 01 85 BD  (Slave: 06, Func: 03)
[HAL-RS485-TX] Transmitting 8 bytes to /dev/ttyOHT485
[HAL-RS485-TX] Success: 8 bytes written
[RS485-TX] Success
[MODBUS] Frame sent, waiting for response...
[RS485-RX] Waiting for response...
[HAL-RS485-RX] Waiting for data (timeout=100 ms)...
[HAL-RS485-RX] Success: received 7 bytes
[RS485-RX] Received 7 bytes: 06 03 02 00 00 0A 84  (Slave: 06, Func: 03)
[RS485-RX] CRC Error - calculated vs received mismatch
[MODBUS] ERROR: receive_modbus_frame failed (status=-1)
[MODBUS] Attempt 3/3: sending frame...
[RS485-TX] Sending 8 bytes: 06 03 00 00 00 01 85 BD  (Slave: 06, Func: 03)
[HAL-RS485-TX] Transmitting 8 bytes to /dev/ttyOHT485
[HAL-RS485-TX] Success: 8 bytes written
[RS485-TX] Success
[MODBUS] Frame sent, waiting for response...
[RS485-RX] Waiting for response...
[HAL-RS485-RX] Waiting for data (timeout=100 ms)...
[HAL-RS485-RX] Success: received 7 bytes
[RS485-RX] Received 7 bytes: 06 03 02 00 00 0A 84  (Slave: 06, Func: 03)
[RS485-RX] CRC Error - calculated vs received mismatch
[MODBUS] ERROR: receive_modbus_frame failed (status=-1)
[MODBUS] ERROR: Max retries exceeded
[SOAK] Probe addr=0x06 read 0x0000 => status=-1 val=0
[MODBUS] Sending request: slave=0x07, fc=0x03, addr=0x0000, qty=1
[MODBUS] Frame built: length=8, data=07 03 00 00 00 01 84 6C 
[MODBUS] Attempt 1/3: sending frame...
[RS485-TX] Sending 8 bytes: 07 03 00 00 00 01 84 6C  (Slave: 07, Func: 03)
[HAL-RS485-TX] Transmitting 8 bytes to /dev/ttyOHT485
[HAL-RS485-TX] Success: 8 bytes written
[RS485-TX] Success
[MODBUS] Frame sent, waiting for response...
[RS485-RX] Waiting for response...
[HAL-RS485-RX] Waiting for data (timeout=100 ms)...
[HAL-RS485-RX] Success: received 7 bytes
[RS485-RX] Received 7 bytes: 07 03 02 00 00 30 44  (Slave: 07, Func: 03)
[RS485-RX] CRC OK
[MODBUS] Response received: length=7, data=07 03 02 00 00 30 44 
[MODBUS] Response parsed successfully
[SOAK] Probe addr=0x07 read 0x0000 => status=0 val=0
[MODBUS] Sending request: slave=0x02, fc=0x03, addr=0x0000, qty=3
[MODBUS] Frame built: length=8, data=02 03 00 00 00 03 05 F8 
[MODBUS] Attempt 1/3: sending frame...
[RS485-TX] Sending 8 bytes: 02 03 00 00 00 03 05 F8  (Slave: 02, Func: 03)
[HAL-RS485-TX] Transmitting 8 bytes to /dev/ttyOHT485
[HAL-RS485-TX] Success: 8 bytes written
[RS485-TX] Success
[MODBUS] Frame sent, waiting for response...
[RS485-RX] Waiting for response...
[HAL-RS485-RX] Waiting for data (timeout=100 ms)...
[HAL-RS485-RX] Success: received 11 bytes
[RS485-RX] Received 11 bytes: 02 03 06 00 00 41 A0 04 00 23 5B  (Slave: 02, Func: 03)
[RS485-RX] CRC OK
[MODBUS] Response received: length=11, data=02 03 06 00 00 41 A0 04 00 23 5B 
[MODBUS] Response parsed successfully
[MODBUS] Sending request: slave=0x03, fc=0x03, addr=0x0300, qty=2
[MODBUS] Frame built: length=8, data=03 03 03 00 00 02 C5 AD 
[MODBUS] Attempt 1/3: sending frame...
[RS485-TX] Sending 8 bytes: 03 03 03 00 00 02 C5 AD  (Slave: 03, Func: 03)
[HAL-RS485-TX] Transmitting 8 bytes to /dev/ttyOHT485
[HAL-RS485-TX] Success: 8 bytes written
[RS485-TX] Success
[MODBUS] Frame sent, waiting for response...
[RS485-RX] Waiting for response...
[HAL-RS485-RX] Waiting for data (timeout=100 ms)...
[HAL-RS485-RX] Success: received 5 bytes
[RS485-RX] Received 5 bytes: 03 83 02 61 31  (Slave: 03, Func: 83)
[RS485-RX] CRC OK
[MODBUS] Response received: length=5, data=03 83 02 61 31 
[MODBUS] EXCEPTION: ILLEGAL_DATA_ADDRESS (code=0x02)
[MODBUS] Sending request: slave=0x04, fc=0x03, addr=0x0200, qty=3
[MODBUS] Frame built: length=8, data=04 03 02 00 00 03 04 26 
[MODBUS] Attempt 1/3: sending frame...
[RS485-TX] Sending 8 bytes: 04 03 02 00 00 03 04 26  (Slave: 04, Func: 03)
[HAL-RS485-TX] Transmitting 8 bytes to /dev/ttyOHT485
[HAL-RS485-TX] Success: 8 bytes written
[RS485-TX] Success
[MODBUS] Frame sent, waiting for response...
[RS485-RX] Waiting for response...
[HAL-RS485-RX] Waiting for data (timeout=100 ms)...
[HAL-RS485-RX] Success: received 5 bytes
[RS485-RX] Received 5 bytes: 04 83 02 D0 F0  (Slave: 04, Func: 83)
[RS485-RX] CRC OK
[MODBUS] Response received: length=5, data=04 83 02 D0 F0 
[MODBUS] EXCEPTION: ILLEGAL_DATA_ADDRESS (code=0x02)
[MODBUS] Sending request: slave=0x05, fc=0x03, addr=0x0400, qty=2
[MODBUS] Frame built: length=8, data=05 03 04 00 00 02 C4 BF 
[MODBUS] Attempt 1/3: sending frame...
[RS485-TX] Sending 8 bytes: 05 03 04 00 00 02 C4 BF  (Slave: 05, Func: 03)
[HAL-RS485-TX] Transmitting 8 bytes to /dev/ttyOHT485
[HAL-RS485-TX] Success: 8 bytes written
[RS485-TX] Success
[MODBUS] Frame sent, waiting for response...
[RS485-RX] Waiting for response...
[HAL-RS485-RX] Waiting for data (timeout=100 ms)...
[HAL-RS485-RX] Success: received 5 bytes
[RS485-RX] Received 5 bytes: 05 83 02 81 30  (Slave: 05, Func: 83)
[RS485-RX] CRC OK
[MODBUS] Response received: length=5, data=05 83 02 81 30 
[MODBUS] EXCEPTION: ILLEGAL_DATA_ADDRESS (code=0x02)
[MODBUS] Sending request: slave=0x02, fc=0x03, addr=0x0000, qty=3
[MODBUS] Frame built: length=8, data=02 03 00 00 00 03 05 F8 
[MODBUS] Attempt 1/3: sending frame...
[RS485-TX] Sending 8 bytes: 02 03 00 00 00 03 05 F8  (Slave: 02, Func: 03)
[HAL-RS485-TX] Transmitting 8 bytes to /dev/ttyOHT485
[HAL-RS485-TX] Success: 8 bytes written
[RS485-TX] Success
[MODBUS] Frame sent, waiting for response...
[RS485-RX] Waiting for response...
[HAL-RS485-RX] Waiting for data (timeout=100 ms)...
[HAL-RS485-RX] Success: received 11 bytes
[RS485-RX] Received 11 bytes: 02 03 06 00 00 41 A0 04 00 23 5B  (Slave: 02, Func: 03)
[RS485-RX] CRC OK
[MODBUS] Response received: length=11, data=02 03 06 00 00 41 A0 04 00 23 5B 
[MODBUS] Response parsed successfully
[MODBUS] Sending request: slave=0x03, fc=0x03, addr=0x0300, qty=2
[MODBUS] Frame built: length=8, data=03 03 03 00 00 02 C5 AD 
[MODBUS] Attempt 1/3: sending frame...
[RS485-TX] Sending 8 bytes: 03 03 03 00 00 02 C5 AD  (Slave: 03, Func: 03)
[HAL-RS485-TX] Transmitting 8 bytes to /dev/ttyOHT485
[HAL-RS485-TX] Success: 8 bytes written
[RS485-TX] Success
[MODBUS] Frame sent, waiting for response...
[RS485-RX] Waiting for response...
[HAL-RS485-RX] Waiting for data (timeout=100 ms)...
[HAL-RS485-RX] Success: received 5 bytes
[RS485-RX] Received 5 bytes: 03 83 02 61 31  (Slave: 03, Func: 83)
[RS485-RX] CRC OK
[MODBUS] Response received: length=5, data=03 83 02 61 31 
[MODBUS] EXCEPTION: ILLEGAL_DATA_ADDRESS (code=0x02)
[MODBUS] Sending request: slave=0x04, fc=0x03, addr=0x0200, qty=3
[MODBUS] Frame built: length=8, data=04 03 02 00 00 03 04 26 
[MODBUS] Attempt 1/3: sending frame...
[RS485-TX] Sending 8 bytes: 04 03 02 00 00 03 04 26  (Slave: 04, Func: 03)
[HAL-RS485-TX] Transmitting 8 bytes to /dev/ttyOHT485
[HAL-RS485-TX] Success: 8 bytes written
[RS485-TX] Success
[MODBUS] Frame sent, waiting for response...
[RS485-RX] Waiting for response...
[HAL-RS485-RX] Waiting for data (timeout=100 ms)...
[HAL-RS485-RX] Success: received 5 bytes
[RS485-RX] Received 5 bytes: 04 83 02 D0 F0  (Slave: 04, Func: 83)
[RS485-RX] CRC OK
[MODBUS] Response received: length=5, data=04 83 02 D0 F0 
[MODBUS] EXCEPTION: ILLEGAL_DATA_ADDRESS (code=0x02)
[MODBUS] Sending request: slave=0x05, fc=0x03, addr=0x0400, qty=2
[MODBUS] Frame built: length=8, data=05 03 04 00 00 02 C4 BF 
[MODBUS] Attempt 1/3: sending frame...
[RS485-TX] Sending 8 bytes: 05 03 04 00 00 02 C4 BF  (Slave: 05, Func: 03)
[HAL-RS485-TX] Transmitting 8 bytes to /dev/ttyOHT485
[HAL-RS485-TX] Success: 8 bytes written
[RS485-TX] Success
[MODBUS] Frame sent, waiting for response...
[RS485-RX] Waiting for response...
[HAL-RS485-RX] Waiting for data (timeout=100 ms)...
[HAL-RS485-RX] Success: received 5 bytes
[RS485-RX] Received 5 bytes: 05 83 02 81 30  (Slave: 05, Func: 83)
[RS485-RX] CRC OK
[MODBUS] Response received: length=5, data=05 83 02 81 30 
[MODBUS] EXCEPTION: ILLEGAL_DATA_ADDRESS (code=0x02)
[MODBUS] Sending request: slave=0x02, fc=0x03, addr=0x0000, qty=3
[MODBUS] Frame built: length=8, data=02 03 00 00 00 03 05 F8 
[MODBUS] Attempt 1/3: sending frame...
[RS485-TX] Sending 8 bytes: 02 03 00 00 00 03 05 F8  (Slave: 02, Func: 03)
[HAL-RS485-TX] Transmitting 8 bytes to /dev/ttyOHT485
[HAL-RS485-TX] Success: 8 bytes written
[RS485-TX] Success
[MODBUS] Frame sent, waiting for response...
[RS485-RX] Waiting for response...
[HAL-RS485-RX] Waiting for data (timeout=100 ms)...
[HAL-RS485-RX] Success: received 11 bytes
[RS485-RX] Received 11 bytes: 02 03 06 00 00 41 A0 04 00 23 5B  (Slave: 02, Func: 03)
[RS485-RX] CRC OK
[MODBUS] Response received: length=11, data=02 03 06 00 00 41 A0 04 00 23 5B 
[MODBUS] Response parsed successfully
[MODBUS] Sending request: slave=0x03, fc=0x03, addr=0x0300, qty=2
[MODBUS] Frame built: length=8, data=03 03 03 00 00 02 C5 AD 
[MODBUS] Attempt 1/3: sending frame...
[RS485-TX] Sending 8 bytes: 03 03 03 00 00 02 C5 AD  (Slave: 03, Func: 03)
[HAL-RS485-TX] Transmitting 8 bytes to /dev/ttyOHT485
[HAL-RS485-TX] Success: 8 bytes written
[RS485-TX] Success
[MODBUS] Frame sent, waiting for response...
[RS485-RX] Waiting for response...
[HAL-RS485-RX] Waiting for data (timeout=100 ms)...
[HAL-RS485-RX] Success: received 5 bytes
[RS485-RX] Received 5 bytes: 03 83 02 61 31  (Slave: 03, Func: 83)
[RS485-RX] CRC OK
[MODBUS] Response received: length=5, data=03 83 02 61 31 
[MODBUS] EXCEPTION: ILLEGAL_DATA_ADDRESS (code=0x02)
[MODBUS] Sending request: slave=0x04, fc=0x03, addr=0x0200, qty=3
[MODBUS] Frame built: length=8, data=04 03 02 00 00 03 04 26 
[MODBUS] Attempt 1/3: sending frame...
[RS485-TX] Sending 8 bytes: 04 03 02 00 00 03 04 26  (Slave: 04, Func: 03)
[HAL-RS485-TX] Transmitting 8 bytes to /dev/ttyOHT485
[HAL-RS485-TX] Success: 8 bytes written
[RS485-TX] Success
[MODBUS] Frame sent, waiting for response...
[RS485-RX] Waiting for response...
[HAL-RS485-RX] Waiting for data (timeout=100 ms)...
[HAL-RS485-RX] Success: received 5 bytes
[RS485-RX] Received 5 bytes: 04 83 02 D0 F0  (Slave: 04, Func: 83)
[RS485-RX] CRC OK
[MODBUS] Response received: length=5, data=04 83 02 D0 F0 
[MODBUS] EXCEPTION: ILLEGAL_DATA_ADDRESS (code=0x02)
[MODBUS] Sending request: slave=0x05, fc=0x03, addr=0x0400, qty=2
[MODBUS] Frame built: length=8, data=05 03 04 00 00 02 C4 BF 
[MODBUS] Attempt 1/3: sending frame...
[RS485-TX] Sending 8 bytes: 05 03 04 00 00 02 C4 BF  (Slave: 05, Func: 03)
[HAL-RS485-TX] Transmitting 8 bytes to /dev/ttyOHT485
[HAL-RS485-TX] Success: 8 bytes written
[RS485-TX] Success
[MODBUS] Frame sent, waiting for response...
[RS485-RX] Waiting for response...
[HAL-RS485-RX] Waiting for data (timeout=100 ms)...
[HAL-RS485-RX] Success: received 5 bytes
[RS485-RX] Received 5 bytes: 05 83 02 81 30  (Slave: 05, Func: 83)
[RS485-RX] CRC OK
[MODBUS] Response received: length=5, data=05 83 02 81 30 
[MODBUS] EXCEPTION: ILLEGAL_DATA_ADDRESS (code=0x02)
[MODBUS] Sending request: slave=0x02, fc=0x03, addr=0x0000, qty=3
[MODBUS] Frame built: length=8, data=02 03 00 00 00 03 05 F8 
[MODBUS] Attempt 1/3: sending frame...
[RS485-TX] Sending 8 bytes: 02 03 00 00 00 03 05 F8  (Slave: 02, Func: 03)
[HAL-RS485-TX] Transmitting 8 bytes to /dev/ttyOHT485
[HAL-RS485-TX] Success: 8 bytes written
[RS485-TX] Success
[MODBUS] Frame sent, waiting for response...
[RS485-RX] Waiting for response...
[HAL-RS485-RX] Waiting for data (timeout=100 ms)...
[HAL-RS485-RX] Success: received 11 bytes
[RS485-RX] Received 11 bytes: 02 03 06 00 00 41 A0 04 00 23 5B  (Slave: 02, Func: 03)
[RS485-RX] CRC OK
[MODBUS] Response received: length=11, data=02 03 06 00 00 41 A0 04 00 23 5B 
[MODBUS] Response parsed successfully
[MODBUS] Sending request: slave=0x03, fc=0x03, addr=0x0300, qty=2
[MODBUS] Frame built: length=8, data=03 03 03 00 00 02 C5 AD 
[MODBUS] Attempt 1/3: sending frame...
[RS485-TX] Sending 8 bytes: 03 03 03 00 00 02 C5 AD  (Slave: 03, Func: 03)
[HAL-RS485-TX] Transmitting 8 bytes to /dev/ttyOHT485
[HAL-RS485-TX] Success: 8 bytes written
[RS485-TX] Success
[MODBUS] Frame sent, waiting for response...
[RS485-RX] Waiting for response...
[HAL-RS485-RX] Waiting for data (timeout=100 ms)...
[HAL-RS485-RX] Success: received 5 bytes
[RS485-RX] Received 5 bytes: 03 83 02 61 31  (Slave: 03, Func: 83)
[RS485-RX] CRC OK
[MODBUS] Response received: length=5, data=03 83 02 61 31 
[MODBUS] EXCEPTION: ILLEGAL_DATA_ADDRESS (code=0x02)
[MODBUS] Sending request: slave=0x04, fc=0x03, addr=0x0200, qty=3
[MODBUS] Frame built: length=8, data=04 03 02 00 00 03 04 26 
[MODBUS] Attempt 1/3: sending frame...
[RS485-TX] Sending 8 bytes: 04 03 02 00 00 03 04 26  (Slave: 04, Func: 03)
[HAL-RS485-TX] Transmitting 8 bytes to /dev/ttyOHT485
[HAL-RS485-TX] Success: 8 bytes written
[RS485-TX] Success
[MODBUS] Frame sent, waiting for response...
[RS485-RX] Waiting for response...
[HAL-RS485-RX] Waiting for data (timeout=100 ms)...
[HAL-RS485-RX] Success: received 5 bytes
[RS485-RX] Received 5 bytes: 04 83 02 D0 F0  (Slave: 04, Func: 83)
[RS485-RX] CRC OK
[MODBUS] Response received: length=5, data=04 83 02 D0 F0 
[MODBUS] EXCEPTION: ILLEGAL_DATA_ADDRESS (code=0x02)
[MODBUS] Sending request: slave=0x05, fc=0x03, addr=0x0400, qty=2
[MODBUS] Frame built: length=8, data=05 03 04 00 00 02 C4 BF 
[MODBUS] Attempt 1/3: sending frame...
[RS485-TX] Sending 8 bytes: 05 03 04 00 00 02 C4 BF  (Slave: 05, Func: 03)
[HAL-RS485-TX] Transmitting 8 bytes to /dev/ttyOHT485
[HAL-RS485-TX] Success: 8 bytes written
[RS485-TX] Success
[MODBUS] Frame sent, waiting for response...
[RS485-RX] Waiting for response...
[HAL-RS485-RX] Waiting for data (timeout=100 ms)...
[HAL-RS485-RX] Success: received 5 bytes
[RS485-RX] Received 5 bytes: 05 83 02 81 30  (Slave: 05, Func: 83)
[RS485-RX] CRC OK
[MODBUS] Response received: length=5, data=05 83 02 81 30 
[MODBUS] EXCEPTION: ILLEGAL_DATA_ADDRESS (code=0x02)
[SOAK] t=1s timeouts=3 crc=3 flap=0 rss=548 kB
[MODBUS] Sending request: slave=0x02, fc=0x03, addr=0x0000, qty=3
[MODBUS] Frame built: length=8, data=02 03 00 00 00 03 05 F8 
[MODBUS] Attempt 1/3: sending frame...
[RS485-TX] Sending 8 bytes: 02 03 00 00 00 03 05 F8  (Slave: 02, Func: 03)
[HAL-RS485-TX] Transmitting 8 bytes to /dev/ttyOHT485
[HAL-RS485-TX] Success: 8 bytes written
[RS485-TX] Success
[MODBUS] Frame sent, waiting for response...
[RS485-RX] Waiting for response...
[HAL-RS485-RX] Waiting for data (timeout=100 ms)...
[HAL-RS485-RX] Success: received 11 bytes
[RS485-RX] Received 11 bytes: 02 03 06 00 00 41 A0 04 00 23 5B  (Slave: 02, Func: 03)
[RS485-RX] CRC OK
[MODBUS] Response received: length=11, data=02 03 06 00 00 41 A0 04 00 23 5B 
[MODBUS] Response parsed successfully
[MODBUS] Sending request: slave=0x03, fc=0x03, addr=0x0300, qty=2
[MODBUS] Frame built: length=8, data=03 03 03 00 00 02 C5 AD 
[MODBUS] Attempt 1/3: sending frame...
[RS485-TX] Sending 8 bytes: 03 03 03 00 00 02 C5 AD  (Slave: 03, Func: 03)
[HAL-RS485-TX] Transmitting 8 bytes to /dev/ttyOHT485
[HAL-RS485-TX] Success: 8 bytes written
[RS485-TX] Success
[MODBUS] Frame sent, waiting for response...
[RS485-RX] Waiting for response...
[HAL-RS485-RX] Waiting for data (timeout=100 ms)...
[HAL-RS485-RX] Success: received 5 bytes
[RS485-RX] Received 5 bytes: 03 83 02 61 31  (Slave: 03, Func: 83)
[RS485-RX] CRC OK
[MODBUS] Response received: length=5, data=03 83 02 61 31 
[MODBUS] EXCEPTION: ILLEGAL_DATA_ADDRESS (code=0x02)
[MODBUS] Sending request: slave=0x04, fc=0x03, addr=0x0200, qty=3
[MODBUS] Frame built: length=8, data=04 03 02 00 00 03 04 26 
[MODBUS] Attempt 1/3: sending frame...
[RS485-TX] Sending 8 bytes: 04 03 02 00 00 03 04 26  (Slave: 04, Func: 03)
[HAL-RS485-TX] Transmitting 8 bytes to /dev/ttyOHT485
[HAL-RS485-TX] Success: 8 bytes written
[RS485-TX] Success
[MODBUS] Frame sent, waiting for response...
[RS485-RX] Waiting for response...
[HAL-RS485-RX] Waiting for data (timeout=100 ms)...
[HAL-RS485-RX] Success: received 5 bytes
[RS485-RX] Received 5 bytes: 04 83 02 D0 F0  (Slave: 04, Func: 83)
[RS485-RX] CRC OK
[MODBUS] Response received: length=5, data=04 83 02 D0 F0 
[MODBUS] EXCEPTION: ILLEGAL_DATA_ADDRESS (code=0x02)
[MODBUS] Sending request: slave=0x05, fc=0x03, addr=0x0400, qty=2
[MODBUS] Frame built: length=8, data=05 03 04 00 00 02 C4 BF 
[MODBUS] Attempt 1/3: sending frame...
[RS485-TX] Sending 8 bytes: 05 03 04 00 00 02 C4 BF  (Slave: 05, Func: 03)
[HAL-RS485-TX] Transmitting 8 bytes to /dev/ttyOHT485
[HAL-RS485-TX] Success: 8 bytes written
[RS485-TX] Success
[MODBUS] Frame sent, waiting for response...
[RS485-RX] Waiting for response...
[HAL-RS485-RX] Waiting for data (timeout=100 ms)...
[HAL-RS485-RX] Success: received 5 bytes
[RS485-RX] Received 5 bytes: 05 83 02 81 30  (Slave: 05, Func: 83)
[RS485-RX] CRC OK
[MODBUS] Response received: length=5, data=05 83 02 81 30 
[MODBUS] EXCEPTION: ILLEGAL_DATA_ADDRESS (code=0x02)
[MODBUS] Sending request: slave=0x02, fc=0x03, addr=0x0000, qty=3
[MODBUS] Frame built: length=8, data=02 03 00 00 00 03 05 F8 
[MODBUS] Attempt 1/3: sending frame...
[RS485-TX] Sending 8 bytes: 02 03 00 00 00 03 05 F8  (Slave: 02, Func: 03)
[HAL-RS485-TX] Transmitting 8 bytes to /dev/ttyOHT485
[HAL-RS485-TX] Success: 8 bytes written
[RS485-TX] Success
[MODBUS] Frame sent, waiting for response...
[RS485-RX] Waiting for response...
[HAL-RS485-RX] Waiting for data (timeout=100 ms)...
[HAL-RS485-RX] Success: received 11 bytes
[RS485-RX] Received 11 bytes: 02 03 06 00 00 41 A0 04 00 23 5B  (Slave: 02, Func: 03)
[RS485-RX] CRC OK
[MODBUS] Response received: length=11, data=02 03 06 00 00 41 A0 04 00 23 5B 
[MODBUS] Response parsed successfully
[MODBUS] Sending request: slave=0x03, fc=0x03, addr=0x0300, qty=2
[MODBUS] Frame built: length=8, data=03 03 03 00 00 02 C5 AD 
[MODBUS] Attempt 1/3: sending frame...
[RS485-TX] Sending 8 bytes: 03 03 03 00 00 02 C5 AD  (Slave: 03, Func: 03)
[HAL-RS485-TX] Transmitting 8 bytes to /dev/ttyOHT485
[HAL-RS485-TX] Success: 8 bytes written
[RS485-TX] Success
[MODBUS] Frame sent, waiting for response...
[RS485-RX] Waiting for response...
[HAL-RS485-RX] Waiting for data (timeout=100 ms)...
[HAL-RS485-RX] Success: received 5 bytes
[RS485-RX] Received 5 bytes: 03 83 02 61 31  (Slave: 03, Func: 83)
[RS485-RX] CRC OK
[MODBUS] Response received: length=5, data=03 83 02 61 31 
[MODBUS] EXCEPTION: ILLEGAL_DATA_ADDRESS (code=0x02)
[MODBUS] Sending request: slave=0x04, fc=0x03, addr=0x0200, qty=3
[MODBUS] Frame built: length=8, data=04 03 02 00 00 03 04 26 
[MODBUS] Attempt 1/3: sending frame...
[RS485-TX] Sending 8 bytes: 04 03 02 00 00 03 04 26  (Slave: 04, Func: 03)
[HAL-RS485-TX] Transmitting 8 bytes to /dev/ttyOHT485
[HAL-RS485-TX] Success: 8 bytes written
[RS485-TX] Success
[MODBUS] Frame sent, waiting for response...
[RS485-RX] Waiting for response...
[HAL-RS485-RX] Waiting for data (timeout=100 ms)...
[HAL-RS485-RX] Success: received 5 bytes
[RS485-RX] Received 5 bytes: 04 83 02 D0 F0  (Slave: 04, Func: 83)
[RS485-RX] CRC OK
[MODBUS] Response received: length=5, data=04 83 02 D0 F0 
[MODBUS] EXCEPTION: ILLEGAL_DATA_ADDRESS (code=0x02)
[MODBUS] Sending request: slave=0x05, fc=0x03, addr=0x0400, qty=2
[MODBUS] Frame built: length=8, data=05 03 04 00 00 02 C4 BF 
[MODBUS] Attempt 1/3: sending frame...
[RS485-TX] Sending 8 bytes: 05 03 04 00 00 02 C4 BF  (Slave: 05, Func: 03)
[HAL-RS485-TX] Transmitting 8 bytes to /dev/ttyOHT485
[HAL-RS485-TX] Success: 8 bytes written
[RS485-TX] Success
[MODBUS] Frame sent, waiting for response...
[RS485-RX] Waiting for response...
[HAL-RS485-RX] Waiting for data (timeout=100 ms)...
[HAL-RS485-RX] Success: received 5 bytes
[RS485-RX] Received 5 bytes: 05 83 02 81 30  (Slave: 05, Func: 83)
[RS485-RX] CRC OK
[MODBUS] Response received: length=5, data=05 83 02 81 30 
[MODBUS] EXCEPTION: ILLEGAL_DATA_ADDRESS (code=0x02)
[MODBUS] Sending request: slave=0x02, fc=0x03, addr=0x0000, qty=3
[MODBUS] Frame built: length=8, data=02 03 00 00 00 03 05 F8 
[MODBUS] Attempt 1/3: sending frame...
[RS485-TX] Sending 8 bytes: 02 03 00 00 00 03 05 F8  (Slave: 02, Func: 03)
[HAL-RS485-TX] Transmitting 8 bytes to /dev/ttyOHT485
[HAL-RS485-TX] Success: 8 bytes written
[RS485-TX] Success
[MODBUS] Frame sent, waiting for response...
[RS485-RX] Waiting for response...
[HAL-RS485-RX] Waiting for data (timeout=100 ms)...
[HAL-RS485-RX] Success: received 11 bytes
[RS485-RX] Received 11 bytes: 02 03 06 00 00 41 A0 04 00 23 5B  (Slave: 02, Func: 03)
[RS485-RX] CRC OK
[MODBUS] Response received: length=11, data=02 03 06 00 00 41 A0 04 00 23 5B 
[MODBUS] Response parsed successfully
[MODBUS] Sending request: slave=0x03, fc=0x03, addr=0x0300, qty=2
[MODBUS] Frame built: length=8, data=03 03 03 00 00 02 C5 AD 
[MODBUS] Attempt 1/3: sending frame...
[RS485-TX] Sending 8 bytes: 03 03 03 00 00 02 C5 AD  (Slave: 03, Func: 03)
[HAL-RS485-TX] Transmitting 8 bytes to /dev/ttyOHT485
[HAL-RS485-TX] Success: 8 bytes written
[RS485-TX] Success
[MODBUS] Frame sent, waiting for response...
[RS485-RX] Waiting for response...
[HAL-RS485-RX] Waiting for data (timeout=100 ms)...
[HAL-RS485-RX] Success: received 5 bytes
[RS485-RX] Received 5 bytes: 03 83 02 61 31  (Slave: 03, Func: 83)
[RS485-RX] CRC OK
[MODBUS] Response received: length=5, data=03 83 02 61 31 
[MODBUS] EXCEPTION: ILLEGAL_DATA_ADDRESS (code=0x02)
[MODBUS] Sending request: slave=0x04, fc=0x03, addr=0x0200, qty=3
[MODBUS] Frame built: length=8, data=04 03 02 00 00 03 04 26 
[MODBUS] Attempt 1/3: sending frame...
[RS485-TX] Sending 8 bytes: 04 03 02 00 00 03 04 26  (Slave: 04, Func: 03)
[HAL-RS485-TX] Transmitting 8 bytes to /dev/ttyOHT485
[HAL-RS485-TX] Success: 8 bytes written
[RS485-TX] Success
[MODBUS] Frame sent, waiting for response...
[RS485-RX] Waiting for response...
[HAL-RS485-RX] Waiting for data (timeout=100 ms)...
[HAL-RS485-RX] Success: received 5 bytes
[RS485-RX] Received 5 bytes: 04 83 02 D0 F0  (Slave: 04, Func: 83)
[RS485-RX] CRC OK
[MODBUS] Response received: length=5, data=04 83 02 D0 F0 
[MODBUS] EXCEPTION: ILLEGAL_DATA_ADDRESS (code=0x02)
[MODBUS] Sending request: slave=0x05, fc=0x03, addr=0x0400, qty=2
[MODBUS] Frame built: length=8, data=05 03 04 00 00 02 C4 BF 
[MODBUS] Attempt 1/3: sending frame...
[RS485-TX] Sending 8 bytes: 05 03 04 00 00 02 C4 BF  (Slave: 05, Func: 03)
[HAL-RS485-TX] Transmitting 8 bytes to /dev/ttyOHT485
[HAL-RS485-TX] Success: 8 bytes written
[RS485-TX] Success
[MODBUS] Frame sent, waiting for response...
[RS485-RX] Waiting for response...
[HAL-RS485-RX] Waiting for data (timeout=100 ms)...
[HAL-RS485-RX] Success: received 5 bytes
[RS485-RX] Received 5 bytes: 05 83 02 81 30  (Slave: 05, Func: 83)
[RS485-RX] CRC OK
[MODBUS] Response received: length=5, data=05 83 02 81 30 
[MODBUS] EXCEPTION: ILLEGAL_DATA_ADDRESS (code=0x02)
[SOAK] t=2s timeouts=3 crc=3 flap=0 rss=548 kB
[MODBUS] Sending request: slave=0x02, fc=0x03, addr=0x0000, qty=3
[MODBUS] Frame built: length=8, data=02 03 00 00 00 03 05 F8 
[MODBUS] Attempt 1/3: sending frame...
[RS485-TX] Sending 8 bytes: 02 03 00 00 00 03 05 F8  (Slave: 02, Func: 03)
[HAL-RS485-TX] Transmitting 8 bytes to /dev/ttyOHT485
[HAL-RS485-TX] Success: 8 bytes written
[RS485-TX] Success
[MODBUS] Frame sent, waiting for response...
[RS485-RX] Waiting for response...
[HAL-RS485-RX] Waiting for data (timeout=100 ms)...
[HAL-RS485-RX] Success: received 11 bytes
[RS485-RX] Received 11 bytes: 02 03 06 00 00 41 A0 04 00 23 5B  (Slave: 02, Func: 03)
[RS485-RX] CRC OK
[MODBUS] Response received: length=11, data=02 03 06 00 00 41 A0 04 00 23 5B 
[MODBUS] Response parsed successfully
[MODBUS] Sending request: slave=0x03, fc=0x03, addr=0x0300, qty=2
[MODBUS] Frame built: length=8, data=03 03 03 00 00 02 C5 AD 
[MODBUS] Attempt 1/3: sending frame...
[RS485-TX] Sending 8 bytes: 03 03 03 00 00 02 C5 AD  (Slave: 03, Func: 03)
[HAL-RS485-TX] Transmitting 8 bytes to /dev/ttyOHT485
[HAL-RS485-TX] Success: 8 bytes written
[RS485-TX] Success
[MODBUS] Frame sent, waiting for response...
[RS485-RX] Waiting for response...
[HAL-RS485-RX] Waiting for data (timeout=100 ms)...
[HAL-RS485-RX] Success: received 5 bytes
[RS485-RX] Received 5 bytes: 03 83 02 61 31  (Slave: 03, Func: 83)
[RS485-RX] CRC OK
[MODBUS] Response received: length=5, data=03 83 02 61 31 
[MODBUS] EXCEPTION: ILLEGAL_DATA_ADDRESS (code=0x02)
[MODBUS] Sending request: slave=0x04, fc=0x03, addr=0x0200, qty=3
[MODBUS] Frame built: length=8, data=04 03 02 00 00 03 04 26 
[MODBUS] Attempt 1/3: sending frame...
[RS485-TX] Sending 8 bytes: 04 03 02 00 00 03 04 26  (Slave: 04, Func: 03)
[HAL-RS485-TX] Transmitting 8 bytes to /dev/ttyOHT485
[HAL-RS485-TX] Success: 8 bytes written
[RS485-TX] Success
